 ****** HSPICE -- D-2010.03-SP1 32-BIT (May 26 2010) winnt ******               
  Copyright (C) 2010 Synopsys, Inc. All Rights Reserved.                        
  Unpublished-rights reserved under US copyright laws.
  This program is protected by law and is subject to the 
  terms and conditions of the license agreement from Synopsys.
  Use of this program is your acceptance to be bound by the 
  license agreement. HSPICE is the trademark of Synopsys, Inc.
  Input File: c:\users\lenovo\desktop\simulation\ac.work\gete ots try.sp        
  lic:  
  lic: FLEXlm: v8.5b 
  lic: USER:   LENOVO               HOSTNAME: LAPTOP-OTMN1855 
  lic: HOSTID: "7c67a241bb02 00ffe66c1cd9 7c67a241bafe 7e67a241bafe 7c67a241baff
 "
  lic: Using FLEXlm license file: 
  lic: 27000@elena 
  lic: Checkout 1 hspice 
  lic: License/Maintenance for hspice will expire on 31-dec-2020/2007.9 
  lic: NODE LOCKED license on hostid "7c67a241bb02 00ffe66c1cd9 7c67a241bafe 7e6
 7
  lic:   
 Init: read install configuration file: D:\hspice\meta.cfg
 scientific notation:
 a=10**-18  f=10**-15  p=10**-12  n=10**-9  u=10**-6
 m=10**-3   k=10**3    x=10**6    g=10**9 
1****** HSPICE -- D-2010.03-SP1 32-BIT (May 26 2010) winnt ******               
 ******  
 nerve circuit

  ******  circuit name directory
 circuit number to circuit name directory
   number circuitname                     definition         multiplier
        0 main circuit
        1 x1.                             ots                1.00 
        2 x2.                             ots                1.00 


 circuit parameter definitions
  parameter          =  value 

     1:alpha1                                                  =   5.9598n      
     1:beta1                                                   =   3.8417       
     1:rtc                                                     =  50.0000       
     1:rbc                                                     =  50.0000       
     1:it                                                      = 845.1400n      
     1:vh                                                      = 549.9990m      
     1:rl                                                      =  10.0000k      
     1:vt                                                      =   1.2240       
     1:vx                                                      = 550.0000m      
     1:ix                                                      =  32.2612n      
     1:cgt                                                     =  10.0000p      
     1:b6                                                      =   1.0000u      
     1:b7                                                      =   1.0000u      
     2:alpha1                                                  =   5.9598n      
     2:beta1                                                   =   3.8417       
     2:rtc                                                     =  50.0000       
     2:rbc                                                     =  50.0000       
     2:it                                                      = 845.1400n      
     2:vh                                                      = 549.9990m      
     2:rl                                                      =  10.0000k      
     2:vt                                                      =   1.2240       
     2:vx                                                      = 550.0000m      
     2:ix                                                      =  32.2612n      
     2:cgt                                                     =  10.0000p      
     2:b6                                                      =   1.0000u      
     2:b7                                                      =   1.0000u      




 constants  - tnom         kt           vt           gapsi        ni
            298.15000    4.1163e-21    25.69184m     1.11562    1.2565e+16 
  **info** (c:\users\lenovo\desktop\simulation\ac.work\gete ots try.sp:28) DC voltage reset to initial transient source value              in source        0:v1                  new dc=  0.0000D+00
1****** HSPICE -- D-2010.03-SP1 32-BIT (May 26 2010) winnt ******               
 ******  
 nerve circuit

  ******  circuit element summary tnom=  25.000 temp=  25.000 *****


 **** resistors

  
 
                                                            
 element name        0:rl1      0:rl2      1:rtc     1:rbc  
 node1               0:1        0:2        0:2       1:gb   
 node2               0:2        0:4        1:gt      0:3    
 model                                                      
 res eff            25.0000k  100.0000k   50.0000   50.0000 
 tc1                 0.         0.         0.        0.     
 tc2                 0.         0.         0.        0.     
 scale               1.0000     1.0000     1.0000    1.0000 
 m                   1.0000     1.0000     1.0000    1.0000 
 ac                 25.0000k  100.0000k   50.0000   50.0000 
 temp               25.0000    25.0000    25.0000   25.0000 
 l                   0.         0.         0.        0.     
 w                   0.         0.         0.        0.     
 cap                 0.         0.         0.        0.     
 noise            1.000e+00  1.000e+00  1.000e+00 1.000e+00 
  
 
                                      
 element name        2:rtc     2:rbc  
 node1               0:4       2:gb   
 node2               2:gt      0:5    
 model                                
 res eff            50.0000   50.0000 
 tc1                 0.        0.     
 tc2                 0.        0.     
 scale               1.0000    1.0000 
 m                   1.0000    1.0000 
 ac                 50.0000   50.0000 
 temp               25.0000   25.0000 
 l                   0.        0.     
 w                   0.        0.     
 cap                 0.        0.     
 noise            1.000e+00 1.000e+00 


 **** capacitors
  
 
                                                              
 element name        0:c1       0:c2       1:c1       2:c1    
 node1               0:2        0:4        1:gt       2:gt    
 node2               0:0        0:0        1:gb       2:gb    
 model                                                        
 cap eff            10.0000n    1.0000n   10.0000p   10.0000p 
 tc1                 0.         0.         0.         0.      
 tc2                 0.         0.         0.         0.      
 scale               1.0000     1.0000     1.0000     1.0000  
 ic                  0.         0.         0.         0.      
 m                   1.0000     1.0000     1.0000     1.0000  
 w                   0.         0.         0.         0.      
 l                   0.         0.         0.         0.      
 temp               25.0000    25.0000    25.0000    25.0000  


 **** voltage-controlled current sources
      name        +             -          dimension  function  multiplier
        1:gg              1:gt              1:gb             3      poly       1.    
        2:gg              2:gt              2:gb             3      poly       1.    


 **** independent sources

     name         node1        node2      dc volt    ac mag    ac phase    type
  v1  1                 0                    0.         0.         0.      pulse
             initial value     0.     
             pulsed value.     3.0000 
             delay time...   300.0000u
             risetime.....    20.0000n
             falltime.....    20.0000n
             width........   200.0000u
             period.......     1.0000m

  v2  0                 3                    1.2240     0.         0.      dc   
  v3  5                 0                    1.2240     0.         0.      dc   


 **** subcircuit calls
    name        subcircuit         external nodes


         0:x1       ots             0:2           0:3       
         0:x2       ots             0:4           0:5       
 
1****** HSPICE -- D-2010.03-SP1 32-BIT (May 26 2010) winnt ******               
 ******  
 nerve circuit

  ******  element node table
                                                                                      
 0                c1               c2               v1               v2               
                  v3                                                                  
 1                rl1              v1                                                 
 2                rl1              rl2              x1.rtc           c1               
                  ic2                                                                 
 3                x1.rbc           v2                                                 
 4                rl2              x2.rtc           c2               ic1              
 5                x2.rbc           v3                                                 
 x1.gb            x1.rbc           x1.c1            x1.gg            x1.gg:-          
                  x1.gg:-          x1.gg:-                                            
 x1.gt            x1.rtc           x1.c1            x1.gg            x1.gg:+          
                  x1.gg:+          x1.gg:+                                            
 x2.gb            x2.rbc           x2.c1            x2.gg            x2.gg:-          
                  x2.gg:-          x2.gg:-                                            
 x2.gt            x2.rtc           x2.c1            x2.gg            x2.gg:+          
                  x2.gg:+          x2.gg:+                                            
 *****************************************************************
 ******  option summary
 ******
 runlvl  = 3         bypass  = 2         
  Opening plot unit= 79
 file=c:\users\lenovo\desktop\simulation\ac.work\gete ots try.pa0              

1****** HSPICE -- D-2010.03-SP1 32-BIT (May 26 2010) winnt ******               
 ******  
 nerve circuit

  ******  operating point information tnom=  25.000 temp=  25.000 *****
 ***** operating point status is voltage   simulation time is     0.     
    node    =voltage      node    =voltage      node    =voltage

 +0:1       =   0.      0:2       =-199.9999m 0:3       =  -1.2240 
 +0:4       = 200.0000m 0:5       =   1.2240  1:gb      =  -1.2240 
 +1:gt      =-200.0155m 2:gb      =   1.2240  2:gt      = 200.0156m

 ******  
 nerve circuit

  ******  transient analysis tnom=  25.000 temp=  25.000 *****
x

        time    voltage      voltage      current      current    
                     4            2           rl1          rl2    
    0.          200.0000m   -199.9999m      8.0000u     -4.0000u  
    1.00000u    196.3819m   -198.8384m      7.9535u     -3.9522u  
    2.00000u    192.8387m   -197.6904m      7.9076u     -3.9053u  
    3.00000u    189.3217m   -196.5473m      7.8619u     -3.8587u  
    4.00000u    185.8417m   -195.4109m      7.8164u     -3.8125u  
    5.00000u    182.5894m   -194.3162m      7.7726u     -3.7691u  
    6.00000u    179.3371m   -193.2215m      7.7289u     -3.7256u  
    7.00000u    176.0848m   -192.1267m      7.6851u     -3.6821u  
    8.00000u    172.8325m   -191.0320m      7.6413u     -3.6386u  
    9.00000u    169.5802m   -189.9373m      7.5975u     -3.5952u  
   10.00000u    166.3280m   -188.8426m      7.5537u     -3.5517u  
   11.00000u    163.0757m   -187.7478m      7.5099u     -3.5082u  
   12.00000u    159.8234m   -186.6531m      7.4661u     -3.4648u  
   13.00000u    157.2549m   -185.6859m      7.4274u     -3.4294u  
   14.00000u    154.7238m   -184.7258m      7.3890u     -3.3945u  
   15.00000u    152.1928m   -183.7656m      7.3506u     -3.3596u  
   16.00000u    149.6618m   -182.8054m      7.3122u     -3.3247u  
   17.00000u    147.1307m   -181.8452m      7.2738u     -3.2898u  
   18.00000u    144.5997m   -180.8850m      7.2354u     -3.2548u  
   19.00000u    142.0686m   -179.9248m      7.1970u     -3.2199u  
   20.00000u    139.5376m   -178.9647m      7.1586u     -3.1850u  
   21.00000u    137.0066m   -178.0045m      7.1202u     -3.1501u  
   22.00000u    134.4755m   -177.0443m      7.0818u     -3.1152u  
   23.00000u    131.9445m   -176.0841m      7.0434u     -3.0803u  
   24.00000u    129.4135m   -175.1239m      7.0050u     -3.0454u  
   25.00000u    126.8824m   -174.1638m      6.9666u     -3.0105u  
   26.00000u    124.3514m   -173.2036m      6.9281u     -2.9755u  
   27.00000u    121.8204m   -172.2434m      6.8897u     -2.9406u  
   28.00000u    119.2893m   -171.2832m      6.8513u     -2.9057u  
   29.00000u    116.7583m   -170.3230m      6.8129u     -2.8708u  
   30.00000u    114.2272m   -169.3629m      6.7745u     -2.8359u  
   31.00000u    111.6962m   -168.4027m      6.7361u     -2.8010u  
   32.00000u    109.1652m   -167.4425m      6.6977u     -2.7661u  
   33.00000u    106.6341m   -166.4823m      6.6593u     -2.7312u  
   34.00000u    104.1031m   -165.5221m      6.6209u     -2.6963u  
   35.00000u    101.5721m   -164.5619m      6.5825u     -2.6613u  
   36.00000u     99.0410m   -163.6018m      6.5441u     -2.6264u  
   37.00000u     96.5100m   -162.6416m      6.5057u     -2.5915u  
   38.00000u     93.9790m   -161.6814m      6.4673u     -2.5566u  
   39.00000u     92.3396m   -160.9001m      6.4360u     -2.5324u  
   40.00000u     91.0241m   -160.1838m      6.4074u     -2.5121u  
   41.00000u     89.7085m   -159.4675m      6.3787u     -2.4918u  
   42.00000u     88.3930m   -158.7512m      6.3500u     -2.4714u  
   43.00000u     87.0775m   -158.0350m      6.3214u     -2.4511u  
   44.00000u     85.7619m   -157.3187m      6.2927u     -2.4308u  
   45.00000u     84.4464m   -156.6024m      6.2641u     -2.4105u  
   46.00000u     83.1308m   -155.8861m      6.2354u     -2.3902u  
   47.00000u     81.8153m   -155.1698m      6.2068u     -2.3699u  
   48.00000u     80.4998m   -154.4535m      6.1781u     -2.3495u  
   49.00000u     79.1842m   -153.7372m      6.1495u     -2.3292u  
   50.00000u     77.8687m   -153.0209m      6.1208u     -2.3089u  
   51.00000u     76.5532m   -152.3046m      6.0922u     -2.2886u  
   52.00000u     75.2376m   -151.5883m      6.0635u     -2.2683u  
   53.00000u     73.9221m   -150.8720m      6.0349u     -2.2479u  
   54.00000u     72.6065m   -150.1557m      6.0062u     -2.2276u  
   55.00000u     71.2910m   -149.4394m      5.9776u     -2.2073u  
   56.00000u     69.9755m   -148.7231m      5.9489u     -2.1870u  
   57.00000u     68.6599m   -148.0068m      5.9203u     -2.1667u  
   58.00000u     67.3444m   -147.2905m      5.8916u     -2.1463u  
   59.00000u     66.0289m   -146.5742m      5.8630u     -2.1260u  
   60.00000u     64.7133m   -145.8579m      5.8343u     -2.1057u  
   61.00000u     63.3978m   -145.1416m      5.8057u     -2.0854u  
   62.00000u     62.0822m   -144.4253m      5.7770u     -2.0651u  
   63.00000u     60.7667m   -143.7090m      5.7484u     -2.0448u  
   64.00000u     59.4512m   -142.9927m      5.7197u     -2.0244u  
   65.00000u     58.1356m   -142.2764m      5.6911u     -2.0041u  
   66.00000u     56.8201m   -141.5601m      5.6624u     -1.9838u  
   67.00000u     55.5046m   -140.8438m      5.6338u     -1.9635u  
   68.00000u     54.1890m   -140.1276m      5.6051u     -1.9432u  
   69.00000u     52.8735m   -139.4113m      5.5765u     -1.9228u  
   70.00000u     51.5580m   -138.6950m      5.5478u     -1.9025u  
   71.00000u     50.2424m   -137.9787m      5.5191u     -1.8822u  
   72.00000u     48.9269m   -137.2624m      5.4905u     -1.8619u  
   73.00000u     47.6113m   -136.5461m      5.4618u     -1.8416u  
   74.00000u     46.2958m   -135.8298m      5.4332u     -1.8213u  
   75.00000u     44.9803m   -135.1135m      5.4045u     -1.8009u  
   76.00000u     43.6647m   -134.3972m      5.3759u     -1.7806u  
   77.00000u     42.3492m   -133.6809m      5.3472u     -1.7603u  
   78.00000u     41.0337m   -132.9646m      5.3186u     -1.7400u  
   79.00000u     39.7181m   -132.2483m      5.2899u     -1.7197u  
   80.00000u     38.4026m   -131.5320m      5.2613u     -1.6993u  
   81.00000u     37.0870m   -130.8157m      5.2326u     -1.6790u  
   82.00000u     35.7715m   -130.0994m      5.2040u     -1.6587u  
   83.00000u     34.4560m   -129.3831m      5.1753u     -1.6384u  
   84.00000u     33.1404m   -128.6668m      5.1467u     -1.6181u  
   85.00000u     31.8249m   -127.9505m      5.1180u     -1.5978u  
   86.00000u     30.5094m   -127.2342m      5.0894u     -1.5774u  
   87.00000u     29.1938m   -126.5179m      5.0607u     -1.5571u  
   88.00000u     27.8783m   -125.8016m      5.0321u     -1.5368u  
   89.00000u     26.5627m   -125.0853m      5.0034u     -1.5165u  
   90.00000u     25.2472m   -124.3690m      4.9748u     -1.4962u  
   91.00000u     23.9317m   -123.6527m      4.9461u     -1.4758u  
   92.00000u     22.6161m   -122.9364m      4.9175u     -1.4555u  
   93.00000u     21.3006m   -122.2202m      4.8888u     -1.4352u  
   94.00000u     19.9851m   -121.5039m      4.8602u     -1.4149u  
   95.00000u     18.6695m   -120.7876m      4.8315u     -1.3946u  
   96.00000u     17.3540m   -120.0713m      4.8029u     -1.3743u  
   97.00000u     16.7293m   -119.5086m      4.7803u     -1.3624u  
   98.00000u     16.2535m   -118.9790m      4.7592u     -1.3523u  
   99.00000u     15.7778m   -118.4494m      4.7380u     -1.3423u  
  100.00000u     15.3021m   -117.9198m      4.7168u     -1.3322u  
  101.00000u     14.8264m   -117.3902m      4.6956u     -1.3222u  
  102.00000u     14.3507m   -116.8607m      4.6744u     -1.3121u  
  103.00000u     13.8750m   -116.3311m      4.6532u     -1.3021u  
  104.00000u     13.3993m   -115.8015m      4.6321u     -1.2920u  
  105.00000u     12.9236m   -115.2719m      4.6109u     -1.2820u  
  106.00000u     12.4479m   -114.7423m      4.5897u     -1.2719u  
  107.00000u     11.9722m   -114.2128m      4.5685u     -1.2618u  
  108.00000u     11.4964m   -113.6832m      4.5473u     -1.2518u  
  109.00000u     11.0412m   -113.1598m      4.5264u     -1.2420u  
  110.00000u     10.6874m   -112.6672m      4.5067u     -1.2335u  
  111.00000u     10.3337m   -112.1746m      4.4870u     -1.2251u  
  112.00000u      9.9800m   -111.6820m      4.4673u     -1.2166u  
  113.00000u      9.6263m   -111.1894m      4.4476u     -1.2082u  
  114.00000u      9.2725m   -110.6968m      4.4279u     -1.1997u  
  115.00000u      8.9188m   -110.2042m      4.4082u     -1.1912u  
  116.00000u      8.5651m   -109.7116m      4.3885u     -1.1828u  
  117.00000u      8.2114m   -109.2190m      4.3688u     -1.1743u  
  118.00000u      7.8576m   -108.7265m      4.3491u     -1.1658u  
  119.00000u      7.5039m   -108.2339m      4.3294u     -1.1574u  
  120.00000u      7.1502m   -107.7413m      4.3097u     -1.1489u  
  121.00000u      6.7965m   -107.2487m      4.2899u     -1.1405u  
  122.00000u      6.4427m   -106.7561m      4.2702u     -1.1320u  
  123.00000u      6.0890m   -106.2635m      4.2505u     -1.1235u  
  124.00000u      5.7353m   -105.7709m      4.2308u     -1.1151u  
  125.00000u      5.3816m   -105.2783m      4.2111u     -1.1066u  
  126.00000u      5.0278m   -104.7857m      4.1914u     -1.0981u  
  127.00000u      4.6741m   -104.2931m      4.1717u     -1.0897u  
  128.00000u      4.3204m   -103.8005m      4.1520u     -1.0812u  
  129.00000u      3.9667m   -103.3079m      4.1323u     -1.0727u  
  130.00000u      3.6129m   -102.8154m      4.1126u     -1.0643u  
  131.00000u      3.2592m   -102.3228m      4.0929u     -1.0558u  
  132.00000u      2.9055m   -101.8302m      4.0732u     -1.0474u  
  133.00000u      2.5518m   -101.3376m      4.0535u     -1.0389u  
  134.00000u      2.1980m   -100.8450m      4.0338u     -1.0304u  
  135.00000u      2.0354m   -100.4171m      4.0167u     -1.0245u  
